T6770 000:008.743   SEGGER J-Link V7.92k Log File
T6770 000:008.855   DLL Compiled: Oct 18 2023 14:58:31
T6770 000:008.861   Logging started @ 2025-03-24 01:53
T6770 000:008.866   Process: C:\Keil_v5\UV4\UV4.exe
T6770 000:008.874 - 8.870ms
T6770 000:008.883 JLINK_SetWarnOutHandler(...)
T6770 000:008.888 - 0.006ms
T6770 000:008.895 JLINK_OpenEx(...)
T6770 000:011.333   Firmware: J-Link V10 compiled Jan 30 2023 11:28:07
T6770 000:011.939   Firmware: J-Link V10 compiled Jan 30 2023 11:28:07
T6770 000:012.128   Decompressing FW timestamp took 150 us
T6770 000:016.512   Hardware: V10.10
T6770 000:016.525   S/N: 260110152
T6770 000:016.532   OEM: SEGGER-EDU
T6770 000:016.539   Feature(s): FlashBP, GDB
T6770 000:018.950   Bootloader: (Could not read)
T6770 000:020.606   TELNET listener socket opened on port 19021
T6770 000:020.739   WEBSRV WEBSRV_Init(): Starting webserver thread(s)
T6770 000:021.209   WEBSRV Webserver running on local port 19080
T6770 000:021.299   Looking for J-Link GUI Server exe at: C:\Keil_v5\ARM\Segger\JLinkGUIServer.exe
T6770 000:021.399   Looking for J-Link GUI Server exe at: C:\Program Files\SEGGER\JLink\JLinkGUIServer.exe
T6770 000:021.434   Forking J-Link GUI Server: C:\Program Files\SEGGER\JLink\JLinkGUIServer.exe
T6770 000:039.302   J-Link GUI Server info: "J-Link GUI server V7.84d "
T6770 000:039.439   J-Link GUI Server: Connection breakdown.
T6770 000:039.462 - 30.554ms returns "O.K."
T6770 000:039.477 JLINK_GetEmuCaps()
T6770 000:039.485 - 0.006ms returns 0xB9FF7BBF
T6770 000:039.494 JLINK_TIF_GetAvailable(...)
T6770 000:040.051 - 0.556ms
T6770 000:040.073 JLINK_SetErrorOutHandler(...)
T6770 000:040.079 - 0.006ms
T6770 000:040.111 JLINK_ExecCommand("ProjectFile = "D:\RMIT\My Documents\EEET2096 - Embedded System Design and Implementation\2025\Laboratories\STM32F439_Template\JLinkSettings.ini"", ...). 
T6770 000:051.348 - 11.238ms returns 0x00
T6770 000:051.387 JLINK_ExecCommand("Device = STM32F439IIHx", ...). 
T6770 000:052.066   Flash bank @ 0x90000000: SFL: Parsing sectorization info from ELF file
T6770 000:052.077     FlashDevice.SectorInfo[0]: .SectorSize = 0x00010000, .SectorStartAddr = 0x00000000
T6770 000:055.296   Device "STM32F439II" selected.
T6770 000:055.585 - 4.189ms returns 0x00
T6770 000:055.599 JLINK_ExecCommand("DisableConnectionTimeout", ...). 
T6770 000:055.608 - 0.001ms returns 0x01
T6770 000:055.615 JLINK_GetHardwareVersion()
T6770 000:055.620 - 0.005ms returns 101000
T6770 000:055.634 JLINK_GetDLLVersion()
T6770 000:055.639 - 0.005ms returns 79211
T6770 000:055.645 JLINK_GetOEMString(...)
T6770 000:055.669 JLINK_GetDLLVersion()
T6770 000:055.674 - 0.005ms returns 79211
T6770 000:055.680 JLINK_GetCompileDateTime()
T6770 000:055.685 - 0.004ms
T6770 000:055.698 JLINK_GetFirmwareString(...)
T6770 000:055.703 - 0.005ms
T6770 000:055.713 JLINK_GetHardwareVersion()
T6770 000:055.718 - 0.005ms returns 101000
T6770 000:055.728 JLINK_GetSN()
T6770 000:055.734 - 0.005ms returns 260110152
T6770 000:055.743 JLINK_GetOEMString(...)
T6770 000:055.760 JLINK_TIF_Select(JLINKARM_TIF_JTAG)
T6770 000:058.793 - 3.032ms returns 0x00
T6770 000:058.808 JLINK_HasError()
T6770 000:058.833 JLINK_SetSpeed(5000)
T6770 000:059.336 - 0.504ms
T6770 000:059.349 JLINK_GetIdData(pIdData)
T6770 000:059.983   InitTarget() start
T6770 000:059.996    J-Link Script File: Executing InitTarget()
T6770 000:060.420   JTAG selected. Identifying JTAG Chain...
T6770 000:061.738   TotalIRLen = 9, IRPrint = 0x0011
T6770 000:062.968   JTAG chain detection found 2 devices:
T6770 000:062.983    #0 Id: 0x4BA00477, IRLen: 04, CoreSight JTAG-DP
T6770 000:062.994    #1 Id: 0x06419041, IRLen: 05, STM32 Boundary Scan
T6770 000:063.006   JTAG Chain Identified. Connecting to DAP TAP...
T6770 000:063.017   Successfully connected to selected DAP TAP.
T6770 000:065.957   DAP initialized successfully.
T6770 000:078.599   InitTarget() end - Took 18.5ms
T6770 000:079.811   TotalIRLen = 9, IRPrint = 0x0011
T6770 000:081.047   JTAG chain detection found 2 devices:
T6770 000:081.062    #0 Id: 0x4BA00477, IRLen: 04, CoreSight JTAG-DP
T6770 000:081.118    #1 Id: 0x06419041, IRLen: 05, STM32 Boundary Scan
T6770 000:082.243   DPv0 detected
T6770 000:082.259   Scanning AP map to find all available APs
T6770 000:083.570   AP[1]: Stopped AP scan as end of AP map has been reached
T6770 000:083.596   AP[0]: AHB-AP (IDR: 0x24770011)
T6770 000:083.610   Iterating through AP map to find AHB-AP to use
T6770 000:084.698   AP[0]: Core found
T6770 000:084.712   AP[0]: AHB-AP ROM base: 0xE00FF000
T6770 000:085.181   CPUID register: 0x410FC241. Implementer code: 0x41 (ARM)
T6770 000:085.199   Found Cortex-M4 r0p1, Little endian.
T6770 000:086.120   -- Max. mem block: 0x00004598
T6770 000:087.246   CPU_ReadMem(4 bytes @ 0xE000EDF0)
T6770 000:087.840   CPU_ReadMem(4 bytes @ 0xE0002000)
T6770 000:088.429   FPUnit: 6 code (BP) slots and 2 literal slots
T6770 000:088.441   CPU_ReadMem(4 bytes @ 0xE000EDFC)
T6770 000:088.952   CPU_WriteMem(4 bytes @ 0xE000EDFC)
T6770 000:089.441   CPU_ReadMem(4 bytes @ 0xE0001000)
T6770 000:089.944   CPU_WriteMem(4 bytes @ 0xE0001000)
T6770 000:090.463   CPU_ReadMem(4 bytes @ 0xE000ED88)
T6770 000:091.016   CPU_WriteMem(4 bytes @ 0xE000ED88)
T6770 000:091.564   CPU_ReadMem(4 bytes @ 0xE000ED88)
T6770 000:092.067   CPU_WriteMem(4 bytes @ 0xE000ED88)
T6770 000:092.569   CoreSight components:
T6770 000:092.583   ROMTbl[0] @ E00FF000
T6770 000:092.592   CPU_ReadMem(64 bytes @ 0xE00FF000)
T6770 000:093.294   CPU_ReadMem(32 bytes @ 0xE000EFE0)
T6770 000:094.094   [0][0]: E000E000 CID B105E00D PID 000BB00C SCS-M7
T6770 000:094.105   CPU_ReadMem(32 bytes @ 0xE0001FE0)
T6770 000:095.031   [0][1]: E0001000 CID B105E00D PID 003BB002 DWT
T6770 000:095.043   CPU_ReadMem(32 bytes @ 0xE0002FE0)
T6770 000:095.906   [0][2]: E0002000 CID B105E00D PID 002BB003 FPB
T6770 000:095.918   CPU_ReadMem(32 bytes @ 0xE0000FE0)
T6770 000:096.805   [0][3]: E0000000 CID B105E00D PID 003BB001 ITM
T6770 000:096.817   CPU_ReadMem(32 bytes @ 0xE0040FE0)
T6770 000:097.685   [0][4]: E0040000 CID B105900D PID 000BB9A1 TPIU
T6770 000:097.697   CPU_ReadMem(32 bytes @ 0xE0041FE0)
T6770 000:098.713   [0][5]: E0041000 CID B105900D PID 000BB925 ETM
T6770 000:098.751   pIdData->ScanLen=9
T6770 000:098.759   pIdData->NumDevices=2
T6770 000:098.765   pIdData->aId[0]=0x4BA00477
T6770 000:098.772   pIdData->aIrRead[0]=0
T6770 000:098.779   pIdData->aScanLen[0]=0
T6770 000:098.786   pIdData->aScanRead[0]=0
T6770 000:098.793 - 39.444ms
T6770 000:098.810 JLINK_JTAG_GetDeviceID(DeviceIndex = 0)
T6770 000:098.816 - 0.007ms returns 1268778103
T6770 000:098.823 JLINK_JTAG_GetDeviceInfo(DeviceIndex = 0)
T6770 000:098.827 - 0.004ms returns 0
T6770 000:098.836 JLINK_JTAG_GetDeviceID(DeviceIndex = 1)
T6770 000:098.841 - 0.005ms returns 104960065
T6770 000:098.850 JLINK_JTAG_GetDeviceInfo(DeviceIndex = 1)
T6770 000:098.855 - 0.004ms returns 0
T6770 000:098.925 JLINK_GetDLLVersion()
T6770 000:098.936 - 0.010ms returns 79211
T6770 000:098.943 JLINK_CORE_GetFound()
T6770 000:098.948 - 0.005ms returns 0xE0000FF
T6770 000:098.963 JLINK_GetDebugInfo(0x100 = JLINKARM_ROM_TABLE_ADDR_INDEX)
T6770 000:098.969   Value=0xE00FF000
T6770 000:098.976 - 0.013ms returns 0
T6770 000:098.991 JLINK_GetDebugInfo(0x100 = JLINKARM_ROM_TABLE_ADDR_INDEX)
T6770 000:098.997   Value=0xE00FF000
T6770 000:099.004 - 0.012ms returns 0
T6770 000:099.010 JLINK_GetDebugInfo(0x101 = JLINKARM_DEBUG_INFO_ETM_ADDR_INDEX)
T6770 000:099.015   Value=0xE0041000
T6770 000:099.022 - 0.011ms returns 0
T6770 000:099.029 JLINK_ReadMemEx(0xE0041FD0, 0x20 Bytes, Flags = 0x02000004)
T6770 000:099.055   CPU_ReadMem(32 bytes @ 0xE0041FD0)
T6770 000:099.914   Data:  04 00 00 00 00 00 00 00 00 00 00 00 00 00 00 00 ...
T6770 000:099.925 - 0.896ms returns 32 (0x20)
T6770 000:099.933 JLINK_GetDebugInfo(0x102 = JLINKARM_DEBUG_INFO_MTB_ADDR_INDEX)
T6770 000:099.938   Value=0x00000000
T6770 000:099.945 - 0.012ms returns 0
T6770 000:099.951 JLINK_GetDebugInfo(0x103 = JLINKARM_DEBUG_INFO_TPIU_ADDR_INDEX)
T6770 000:099.956   Value=0xE0040000
T6770 000:099.966 - 0.014ms returns 0
T6770 000:099.972 JLINK_GetDebugInfo(0x104 = JLINKARM_DEBUG_INFO_ITM_ADDR_INDEX)
T6770 000:099.977   Value=0xE0000000
T6770 000:099.984 - 0.011ms returns 0
T6770 000:099.990 JLINK_GetDebugInfo(0x105 = JLINKARM_DEBUG_INFO_DWT_ADDR_INDEX)
T6770 000:099.995   Value=0xE0001000
T6770 000:100.002 - 0.011ms returns 0
T6770 000:100.008 JLINK_GetDebugInfo(0x106 = JLINKARM_DEBUG_INFO_FPB_ADDR_INDEX)
T6770 000:100.013   Value=0xE0002000
T6770 000:100.020 - 0.011ms returns 0
T6770 000:100.026 JLINK_GetDebugInfo(0x107 = JLINKARM_DEBUG_INFO_NVIC_ADDR_INDEX)
T6770 000:100.030   Value=0xE000E000
T6770 000:100.037 - 0.011ms returns 0
T6770 000:100.043 JLINK_GetDebugInfo(0x10C = JLINKARM_DEBUG_INFO_DBG_ADDR_INDEX)
T6770 000:100.048   Value=0xE000EDF0
T6770 000:100.055 - 0.011ms returns 0
T6770 000:100.065 JLINK_GetDebugInfo(0x01 = Unknown)
T6770 000:100.070   Value=0x00000001
T6770 000:100.077 - 0.015ms returns 0
T6770 000:100.083 JLINK_ReadMemU32(0xE000ED00, 0x1 Items)
T6770 000:100.092   CPU_ReadMem(4 bytes @ 0xE000ED00)
T6770 000:100.705   Data:  41 C2 0F 41
T6770 000:100.716   Debug reg: CPUID
T6770 000:100.724 - 0.640ms returns 1 (0x1)
T6770 000:100.732 JLINK_GetDebugInfo(0x10F = JLINKARM_DEBUG_INFO_HAS_CORTEX_M_SECURITY_EXT_INDEX)
T6770 000:100.737   Value=0x00000000
T6770 000:100.744 - 0.012ms returns 0
T6770 000:100.751 JLINK_HasError()
T6770 000:100.758 JLINK_SetResetType(JLINKARM_CM3_RESET_TYPE_NORMAL)
T6770 000:100.763 - 0.005ms returns JLINKARM_CM3_RESET_TYPE_NORMAL
T6770 000:100.770 JLINK_Reset()
T6770 000:100.787   CPU is running
T6770 000:100.795   CPU_WriteMem(4 bytes @ 0xE000EDF0)
T6770 000:101.590   CPU is running
T6770 000:101.602   CPU_WriteMem(4 bytes @ 0xE000EDFC)
T6770 000:102.099   Reset: Halt core after reset via DEMCR.VC_CORERESET.
T6770 000:102.118   Reset: Reset device via AIRCR.SYSRESETREQ.
T6770 000:102.126   CPU is running
T6770 000:102.134   CPU_WriteMem(4 bytes @ 0xE000ED0C)
T6770 000:153.881   CPU_ReadMem(4 bytes @ 0xE000EDF0)
T6770 000:154.589   CPU_ReadMem(4 bytes @ 0xE000EDF0)
T6770 000:158.007   CPU_WriteMem(4 bytes @ 0xE000EDFC)
T6770 000:164.869   CPU_ReadMem(4 bytes @ 0xE000EDF0)
T6770 000:168.107   CPU_WriteMem(4 bytes @ 0xE000EDFC)
T6770 000:168.948   CPU_WriteMem(4 bytes @ 0xE0001028)
T6770 000:169.513   CPU_WriteMem(4 bytes @ 0xE0001038)
T6770 000:170.000   CPU_WriteMem(4 bytes @ 0xE0001048)
T6770 000:170.499   CPU_WriteMem(4 bytes @ 0xE0001058)
T6770 000:171.058   CPU_WriteMem(4 bytes @ 0xE0002000)
T6770 000:171.562   CPU_ReadMem(4 bytes @ 0xE000EDFC)
T6770 000:172.107   CPU_ReadMem(4 bytes @ 0xE0001000)
T6770 000:172.654 - 71.884ms
T6770 000:172.676 JLINK_HasError()
T6770 000:172.692 JLINK_ReadReg(R15 (PC))
T6770 000:172.700 - 0.016ms returns 0x080062D8
T6770 000:172.743 JLINK_ReadReg(XPSR)
T6770 000:172.756 - 0.013ms returns 0x01000000
T6770 000:172.764 JLINK_Halt()
T6770 000:172.769 - 0.005ms returns 0x00
T6770 000:172.777 JLINK_ReadMemU32(0xE000EDF0, 0x1 Items)
T6770 000:172.787   CPU_ReadMem(4 bytes @ 0xE000EDF0)
T6770 000:173.524   Data:  03 00 03 00
T6770 000:173.535   Debug reg: DHCSR
T6770 000:173.542 - 0.765ms returns 1 (0x1)
T6770 000:173.551 JLINK_WriteU32_64(0xE000EDF0, 0xA05F0003)
T6770 000:173.556   Debug reg: DHCSR
T6770 000:173.805   CPU_WriteMem(4 bytes @ 0xE000EDF0)
T6770 000:174.401 - 0.849ms returns 0 (0x00000000)
T6770 000:174.412 JLINK_WriteU32_64(0xE000EDFC, 0x01000000)
T6770 000:174.418   Debug reg: DEMCR
T6770 000:174.429   CPU_WriteMem(4 bytes @ 0xE000EDFC)
T6770 000:174.882 - 0.469ms returns 0 (0x00000000)
T6770 000:174.920 JLINK_GetHWStatus(...)
T6770 000:175.392 - 0.471ms returns 0
T6770 000:175.419 JLINK_GetNumBPUnits(Type = 0xFFFFFF00)
T6770 000:175.425 - 0.006ms returns 0x06
T6770 000:175.432 JLINK_GetNumBPUnits(Type = 0xF0)
T6770 000:175.437 - 0.005ms returns 0x2000
T6770 000:175.443 JLINK_GetNumWPUnits()
T6770 000:175.448 - 0.004ms returns 4
T6770 000:175.464 JLINK_GetSpeed()
T6770 000:175.469 - 0.005ms returns 5000
T6770 000:175.482 JLINK_ReadMemU32(0xE000E004, 0x1 Items)
T6770 000:175.495   CPU_ReadMem(4 bytes @ 0xE000E004)
T6770 000:176.031   Data:  02 00 00 00
T6770 000:176.042 - 0.560ms returns 1 (0x1)
T6770 000:176.051 JLINK_ReadMemU32(0xE000E004, 0x1 Items)
T6770 000:176.059   CPU_ReadMem(4 bytes @ 0xE000E004)
T6770 000:176.946   Data:  02 00 00 00
T6770 000:176.957 - 0.906ms returns 1 (0x1)
T6770 000:176.966 JLINK_WriteMemEx(0xE0001000, 0x0000001C Bytes, Flags = 0x02000004)
T6770 000:176.971   Data:  01 00 00 00 00 00 00 00 00 00 00 00 00 00 00 00 ...
T6770 000:176.983   CPU_WriteMem(28 bytes @ 0xE0001000)
T6770 000:177.818 - 0.852ms returns 0x1C
T6770 000:177.830 JLINK_HasError()
T6770 000:177.837 JLINK_ReadReg(R15 (PC))
T6770 000:177.844 - 0.006ms returns 0x080062D8
T6770 000:177.851 JLINK_ReadReg(XPSR)
T6770 000:177.856 - 0.005ms returns 0x01000000
T6770 000:181.426 JLINK_ReadMemEx(0xE0001004, 0x4 Bytes, Flags = 0x02000000)
T6770 000:181.441   Data:  00 00 00 00
T6770 000:181.449   Debug reg: DWT_CYCCNT
T6770 000:181.456 - 0.030ms returns 4 (0x4)
T6770 000:189.115 JLINK_WriteMemEx(0x20000000, 0x00000AD8 Bytes, Flags = 0x02000000)
T6770 000:189.130   Data:  08 04 01 20 8D 03 00 20 C1 01 00 20 97 03 00 20 ...
T6770 000:189.377   CPU_WriteMem(2776 bytes @ 0x20000000)
T6770 000:205.585 - 16.470ms returns 0xAD8
T6770 000:261.380 JLINK_HasError()
T6770 000:261.403 JLINK_SetResetType(JLINKARM_CM3_RESET_TYPE_NORMAL)
T6770 000:261.409 - 0.006ms returns JLINKARM_CM3_RESET_TYPE_NORMAL
T6770 000:261.416 JLINK_Reset()
T6770 000:261.433   CPU_WriteMem(4 bytes @ 0xE000EDF0)
T6770 000:262.197   CPU_WriteMem(4 bytes @ 0xE000EDFC)
T6770 000:262.699   Reset: Halt core after reset via DEMCR.VC_CORERESET.
T6770 000:262.717   Reset: Reset device via AIRCR.SYSRESETREQ.
T6770 000:262.727   CPU_WriteMem(4 bytes @ 0xE000ED0C)
T6770 000:314.893   CPU_ReadMem(4 bytes @ 0xE000EDF0)
T6770 000:315.613   CPU_ReadMem(4 bytes @ 0xE000EDF0)
T6770 000:316.439   CPU_WriteMem(4 bytes @ 0xE000EDFC)
T6770 000:322.909   CPU_ReadMem(4 bytes @ 0xE000EDF0)
T6770 000:325.788   CPU_WriteMem(4 bytes @ 0xE000EDFC)
T6770 000:326.643   CPU_WriteMem(4 bytes @ 0xE0001028)
T6770 000:327.112   CPU_WriteMem(4 bytes @ 0xE0001038)
T6770 000:327.642   CPU_WriteMem(4 bytes @ 0xE0001048)
T6770 000:328.189   CPU_WriteMem(4 bytes @ 0xE0001058)
T6770 000:328.735   CPU_WriteMem(4 bytes @ 0xE0002000)
T6770 000:329.211   CPU_ReadMem(4 bytes @ 0xE000EDFC)
T6770 000:329.732   CPU_ReadMem(4 bytes @ 0xE0001000)
T6770 000:330.270 - 68.854ms
T6770 000:330.314 JLINK_HasError()
T6770 000:330.356 JLINK_ReadReg(R15 (PC))
T6770 000:330.370 - 0.013ms returns 0x080062D8
T6770 000:330.378 JLINK_ReadReg(XPSR)
T6770 000:330.384 - 0.005ms returns 0x01000000
T6770 000:330.442 JLINK_ReadMemEx(0x080062D8, 0x3C Bytes, Flags = 0x02000000)
T6770 000:330.454   CPU_ReadMem(128 bytes @ 0x080062C0)
T6770 000:331.755    -- Updating C cache (128 bytes @ 0x080062C0)
T6770 000:331.767    -- Read from C cache (60 bytes @ 0x080062D8)
T6770 000:331.780   Data:  00 21 03 E0 0F 4B 5B 58 43 50 04 31 0E 48 0F 4B ...
T6770 000:331.788 - 1.346ms returns 60 (0x3C)
T6770 000:331.796 JLINK_ReadMemEx(0x080062D8, 0x2 Bytes, Flags = 0x02000000)
T6770 000:331.803    -- Read from C cache (2 bytes @ 0x080062D8)
T6770 000:331.810   Data:  00 21
T6770 000:331.817 - 0.020ms returns 2 (0x2)
T6770 000:331.883 JLINK_ReadMemEx(0x080062DA, 0x2 Bytes, Flags = 0x02000000)
T6770 000:331.889    -- Read from C cache (2 bytes @ 0x080062DA)
T6770 000:331.896   Data:  03 E0
T6770 000:331.903 - 0.020ms returns 2 (0x2)
T6770 000:332.231 JLINK_ReadMemEx(0x080062DA, 0x2 Bytes, Flags = 0x02000000)
T6770 000:332.238    -- Read from C cache (2 bytes @ 0x080062DA)
T6770 000:332.245   Data:  03 E0
T6770 000:332.252 - 0.021ms returns 2 (0x2)
T6770 000:332.259 JLINK_ReadMemEx(0x080062DC, 0x3C Bytes, Flags = 0x02000000)
T6770 000:332.264    -- Read from C cache (60 bytes @ 0x080062DC)
T6770 000:332.272   Data:  0F 4B 5B 58 43 50 04 31 0E 48 0F 4B 42 18 9A 42 ...
T6770 000:332.279 - 0.019ms returns 60 (0x3C)
T6770 000:332.322 JLINK_ReadMemEx(0x080062DC, 0x2 Bytes, Flags = 0x02000000)
T6770 000:332.330    -- Read from C cache (2 bytes @ 0x080062DC)
T6770 000:332.337   Data:  0F 4B
T6770 000:332.344 - 0.022ms returns 2 (0x2)
T6770 000:332.354 JLINK_ReadMemEx(0x080062DC, 0x3C Bytes, Flags = 0x02000000)
T6770 000:332.360    -- Read from C cache (60 bytes @ 0x080062DC)
T6770 000:332.367   Data:  0F 4B 5B 58 43 50 04 31 0E 48 0F 4B 42 18 9A 42 ...
T6770 000:332.374 - 0.020ms returns 60 (0x3C)
T6770 000:332.381 JLINK_ReadMemEx(0x080062DC, 0x2 Bytes, Flags = 0x02000000)
T6770 000:332.386    -- Read from C cache (2 bytes @ 0x080062DC)
T6770 000:332.393   Data:  0F 4B
T6770 000:332.400 - 0.019ms returns 2 (0x2)
T6770 000:332.406 JLINK_ReadMemEx(0x080062DE, 0x2 Bytes, Flags = 0x02000000)
T6770 000:332.411    -- Read from C cache (2 bytes @ 0x080062DE)
T6770 000:332.418   Data:  5B 58
T6770 000:332.425 - 0.019ms returns 2 (0x2)
T6770 000:332.434 JLINK_ReadMemEx(0x080062DE, 0x2 Bytes, Flags = 0x02000000)
T6770 000:332.439    -- Read from C cache (2 bytes @ 0x080062DE)
T6770 000:332.446   Data:  5B 58
T6770 000:332.453 - 0.019ms returns 2 (0x2)
T6770 000:332.460 JLINK_ReadMemEx(0x080062E0, 0x3C Bytes, Flags = 0x02000000)
T6770 000:332.465    -- Read from C cache (60 bytes @ 0x080062E0)
T6770 000:332.472   Data:  43 50 04 31 0E 48 0F 4B 42 18 9A 42 F6 D3 0E 4A ...
T6770 000:332.479 - 0.019ms returns 60 (0x3C)
T6770 000:332.486 JLINK_ReadMemEx(0x080062E0, 0x2 Bytes, Flags = 0x02000000)
T6770 000:332.491    -- Read from C cache (2 bytes @ 0x080062E0)
T6770 000:332.498   Data:  43 50
T6770 000:332.505 - 0.019ms returns 2 (0x2)
T6770 000:332.513 JLINK_ReadMemEx(0x080062E0, 0x3C Bytes, Flags = 0x02000000)
T6770 000:332.518    -- Read from C cache (60 bytes @ 0x080062E0)
T6770 000:332.526   Data:  43 50 04 31 0E 48 0F 4B 42 18 9A 42 F6 D3 0E 4A ...
T6770 000:332.532 - 0.019ms returns 60 (0x3C)
T6770 000:332.539 JLINK_ReadMemEx(0x080062E0, 0x2 Bytes, Flags = 0x02000000)
T6770 000:332.544    -- Read from C cache (2 bytes @ 0x080062E0)
T6770 000:332.551   Data:  43 50
T6770 000:332.558 - 0.019ms returns 2 (0x2)
T6770 000:332.564 JLINK_ReadMemEx(0x080062E2, 0x2 Bytes, Flags = 0x02000000)
T6770 000:332.569    -- Read from C cache (2 bytes @ 0x080062E2)
T6770 000:332.576   Data:  04 31
T6770 000:332.583 - 0.019ms returns 2 (0x2)
T6770 000:332.594 JLINK_ReadMemEx(0x080062E2, 0x2 Bytes, Flags = 0x02000000)
T6770 000:332.600    -- Read from C cache (2 bytes @ 0x080062E2)
T6770 000:332.607   Data:  04 31
T6770 000:332.614 - 0.019ms returns 2 (0x2)
T6770 000:332.620 JLINK_ReadMemEx(0x080062E4, 0x3C Bytes, Flags = 0x02000000)
T6770 000:332.625    -- Read from C cache (60 bytes @ 0x080062E4)
T6770 000:332.633   Data:  0E 48 0F 4B 42 18 9A 42 F6 D3 0E 4A 02 E0 00 23 ...
T6770 000:332.640 - 0.019ms returns 60 (0x3C)
T6770 000:332.646 JLINK_ReadMemEx(0x080062E4, 0x2 Bytes, Flags = 0x02000000)
T6770 000:332.651    -- Read from C cache (2 bytes @ 0x080062E4)
T6770 000:332.658   Data:  0E 48
T6770 000:332.665 - 0.019ms returns 2 (0x2)
T6770 000:332.673 JLINK_ReadMemEx(0x080062E4, 0x3C Bytes, Flags = 0x02000000)
T6770 000:332.678    -- Read from C cache (60 bytes @ 0x080062E4)
T6770 000:332.686   Data:  0E 48 0F 4B 42 18 9A 42 F6 D3 0E 4A 02 E0 00 23 ...
T6770 000:332.693 - 0.019ms returns 60 (0x3C)
T6770 000:332.699 JLINK_ReadMemEx(0x080062E4, 0x2 Bytes, Flags = 0x02000000)
T6770 000:332.704    -- Read from C cache (2 bytes @ 0x080062E4)
T6770 000:332.711   Data:  0E 48
T6770 000:332.718 - 0.019ms returns 2 (0x2)
T6770 000:332.725 JLINK_ReadMemEx(0x080062E6, 0x2 Bytes, Flags = 0x02000000)
T6770 000:332.730    -- Read from C cache (2 bytes @ 0x080062E6)
T6770 000:332.737   Data:  0F 4B
T6770 000:332.744 - 0.019ms returns 2 (0x2)
T6770 000:332.752 JLINK_ReadMemEx(0x080062E6, 0x2 Bytes, Flags = 0x02000000)
T6770 000:332.757    -- Read from C cache (2 bytes @ 0x080062E6)
T6770 000:332.764   Data:  0F 4B
T6770 000:332.771 - 0.019ms returns 2 (0x2)
T6770 000:332.777 JLINK_ReadMemEx(0x080062E8, 0x3C Bytes, Flags = 0x02000000)
T6770 000:332.784    -- Read from C cache (60 bytes @ 0x080062E8)
T6770 000:332.792   Data:  42 18 9A 42 F6 D3 0E 4A 02 E0 00 23 42 F8 04 3B ...
T6770 000:332.799 - 0.021ms returns 60 (0x3C)
T6770 000:332.805 JLINK_ReadMemEx(0x080062E8, 0x2 Bytes, Flags = 0x02000000)
T6770 000:332.810    -- Read from C cache (2 bytes @ 0x080062E8)
T6770 000:332.817   Data:  42 18
T6770 000:332.824 - 0.019ms returns 2 (0x2)
T6770 000:332.835 JLINK_ReadMemEx(0x080062E8, 0x3C Bytes, Flags = 0x02000000)
T6770 000:332.841    -- Read from C cache (60 bytes @ 0x080062E8)
T6770 000:332.849   Data:  42 18 9A 42 F6 D3 0E 4A 02 E0 00 23 42 F8 04 3B ...
T6770 000:332.856 - 0.020ms returns 60 (0x3C)
T6770 000:332.862 JLINK_ReadMemEx(0x080062E8, 0x2 Bytes, Flags = 0x02000000)
T6770 000:332.867    -- Read from C cache (2 bytes @ 0x080062E8)
T6770 000:332.874   Data:  42 18
T6770 000:332.881 - 0.019ms returns 2 (0x2)
T6770 000:332.888 JLINK_ReadMemEx(0x080062EA, 0x2 Bytes, Flags = 0x02000000)
T6770 000:332.893    -- Read from C cache (2 bytes @ 0x080062EA)
T6770 000:332.900   Data:  9A 42
T6770 000:332.907 - 0.019ms returns 2 (0x2)
T6770 000:332.915 JLINK_ReadMemEx(0x080062EA, 0x2 Bytes, Flags = 0x02000000)
T6770 000:332.920    -- Read from C cache (2 bytes @ 0x080062EA)
T6770 000:332.927   Data:  9A 42
T6770 000:332.934 - 0.019ms returns 2 (0x2)
T6770 000:332.941 JLINK_ReadMemEx(0x080062EC, 0x3C Bytes, Flags = 0x02000000)
T6770 000:332.946    -- Read from C cache (60 bytes @ 0x080062EC)
T6770 000:332.954   Data:  F6 D3 0E 4A 02 E0 00 23 42 F8 04 3B 0C 4B 9A 42 ...
T6770 000:332.961 - 0.019ms returns 60 (0x3C)
T6770 000:332.967 JLINK_ReadMemEx(0x080062EC, 0x2 Bytes, Flags = 0x02000000)
T6770 000:332.972    -- Read from C cache (2 bytes @ 0x080062EC)
T6770 000:332.979   Data:  F6 D3
T6770 000:332.986 - 0.019ms returns 2 (0x2)
T6770 001:563.422 JLINK_HasError()
T6770 001:563.444 JLINK_ReadReg(R0)
T6770 001:564.083 - 0.638ms returns 0x00000000
T6770 001:564.095 JLINK_ReadReg(R1)
T6770 001:564.101 - 0.005ms returns 0x00000000
T6770 001:564.108 JLINK_ReadReg(R2)
T6770 001:564.113 - 0.005ms returns 0x00000000
T6770 001:564.119 JLINK_ReadReg(R3)
T6770 001:564.125 - 0.005ms returns 0x00000000
T6770 001:564.131 JLINK_ReadReg(R4)
T6770 001:564.137 - 0.005ms returns 0x00000000
T6770 001:564.143 JLINK_ReadReg(R5)
T6770 001:564.148 - 0.005ms returns 0x00000000
T6770 001:564.155 JLINK_ReadReg(R6)
T6770 001:564.160 - 0.005ms returns 0x00000000
T6770 001:564.166 JLINK_ReadReg(R7)
T6770 001:564.172 - 0.005ms returns 0x00000000
T6770 001:564.188 JLINK_ReadReg(R8)
T6770 001:564.194 - 0.015ms returns 0x00000000
T6770 001:564.200 JLINK_ReadReg(R9)
T6770 001:564.205 - 0.005ms returns 0x00000000
T6770 001:564.211 JLINK_ReadReg(R10)
T6770 001:564.217 - 0.005ms returns 0x00000000
T6770 001:564.223 JLINK_ReadReg(R11)
T6770 001:564.228 - 0.005ms returns 0x00000000
T6770 001:564.234 JLINK_ReadReg(R12)
T6770 001:564.239 - 0.005ms returns 0x00000000
T6770 001:564.245 JLINK_ReadReg(R13 (SP))
T6770 001:564.251 - 0.005ms returns 0x2002FFFC
T6770 001:564.257 JLINK_ReadReg(R14)
T6770 001:564.262 - 0.005ms returns 0xFFFFFFFF
T6770 001:564.269 JLINK_ReadReg(R15 (PC))
T6770 001:564.274 - 0.005ms returns 0x080062D8
T6770 001:564.280 JLINK_ReadReg(XPSR)
T6770 001:564.285 - 0.005ms returns 0x01000000
T6770 001:564.291 JLINK_ReadReg(MSP)
T6770 001:564.296 - 0.005ms returns 0x2002FFFC
T6770 001:564.303 JLINK_ReadReg(PSP)
T6770 001:564.308 - 0.004ms returns 0x00000000
T6770 001:564.314 JLINK_ReadReg(CFBP)
T6770 001:564.319 - 0.005ms returns 0x00000000
T6770 001:564.325 JLINK_ReadReg(FPSCR)
T6770 001:567.733 - 3.407ms returns 0x00000000
T6770 001:567.745 JLINK_ReadReg(FPS0)
T6770 001:567.760 - 0.014ms returns 0x00000000
T6770 001:567.767 JLINK_ReadReg(FPS1)
T6770 001:567.772 - 0.005ms returns 0x00000000
T6770 001:567.778 JLINK_ReadReg(FPS2)
T6770 001:567.784 - 0.005ms returns 0x00000000
T6770 001:567.790 JLINK_ReadReg(FPS3)
T6770 001:567.795 - 0.005ms returns 0x00000000
T6770 001:567.802 JLINK_ReadReg(FPS4)
T6770 001:567.810 - 0.007ms returns 0x00000000
T6770 001:567.817 JLINK_ReadReg(FPS5)
T6770 001:567.823 - 0.005ms returns 0x00000000
T6770 001:567.829 JLINK_ReadReg(FPS6)
T6770 001:567.834 - 0.005ms returns 0x00000000
T6770 001:567.841 JLINK_ReadReg(FPS7)
T6770 001:567.846 - 0.005ms returns 0x00000000
T6770 001:567.852 JLINK_ReadReg(FPS8)
T6770 001:567.860 - 0.007ms returns 0x00000000
T6770 001:567.866 JLINK_ReadReg(FPS9)
T6770 001:567.872 - 0.005ms returns 0x00000000
T6770 001:567.878 JLINK_ReadReg(FPS10)
T6770 001:567.883 - 0.005ms returns 0x00000000
T6770 001:567.889 JLINK_ReadReg(FPS11)
T6770 001:567.895 - 0.005ms returns 0x00000000
T6770 001:567.901 JLINK_ReadReg(FPS12)
T6770 001:567.906 - 0.005ms returns 0x00000000
T6770 001:567.912 JLINK_ReadReg(FPS13)
T6770 001:567.918 - 0.005ms returns 0x00000000
T6770 001:567.924 JLINK_ReadReg(FPS14)
T6770 001:567.929 - 0.005ms returns 0x00000000
T6770 001:567.936 JLINK_ReadReg(FPS15)
T6770 001:567.941 - 0.005ms returns 0x00000000
T6770 001:567.947 JLINK_ReadReg(FPS16)
T6770 001:567.952 - 0.005ms returns 0x00000000
T6770 001:567.959 JLINK_ReadReg(FPS17)
T6770 001:567.964 - 0.005ms returns 0x00000000
T6770 001:567.970 JLINK_ReadReg(FPS18)
T6770 001:567.975 - 0.005ms returns 0x00000000
T6770 001:567.982 JLINK_ReadReg(FPS19)
T6770 001:567.987 - 0.005ms returns 0x00000000
T6770 001:567.993 JLINK_ReadReg(FPS20)
T6770 001:567.999 - 0.005ms returns 0x00000000
T6770 001:568.005 JLINK_ReadReg(FPS21)
T6770 001:568.010 - 0.005ms returns 0x00000000
T6770 001:568.016 JLINK_ReadReg(FPS22)
T6770 001:568.022 - 0.005ms returns 0x00000000
T6770 001:568.028 JLINK_ReadReg(FPS23)
T6770 001:568.033 - 0.005ms returns 0x00000000
T6770 001:568.039 JLINK_ReadReg(FPS24)
T6770 001:568.045 - 0.005ms returns 0x00000000
T6770 001:568.051 JLINK_ReadReg(FPS25)
T6770 001:568.056 - 0.005ms returns 0x00000000
T6770 001:568.062 JLINK_ReadReg(FPS26)
T6770 001:568.068 - 0.005ms returns 0x00000000
T6770 001:568.074 JLINK_ReadReg(FPS27)
T6770 001:568.079 - 0.005ms returns 0x00000000
T6770 001:568.085 JLINK_ReadReg(FPS28)
T6770 001:568.091 - 0.005ms returns 0x00000000
T6770 001:568.097 JLINK_ReadReg(FPS29)
T6770 001:568.102 - 0.005ms returns 0x00000000
T6770 001:568.109 JLINK_ReadReg(FPS30)
T6770 001:568.114 - 0.005ms returns 0x00000000
T6770 001:568.120 JLINK_ReadReg(FPS31)
T6770 001:568.125 - 0.005ms returns 0x00000000
T6770 001:574.410 JLINK_WriteMemEx(0x20000000, 0x00000AD8 Bytes, Flags = 0x02000000)
T6770 001:574.427   Data:  08 04 01 20 8D 03 00 20 C1 01 00 20 97 03 00 20 ...
T6770 001:574.447   CPU_WriteMem(2776 bytes @ 0x20000000)
T6770 001:590.305 - 15.895ms returns 0xAD8
T6770 001:641.928 JLINK_ReadMemEx(0x20000000, 0x4 Bytes, Flags = 0x02000000)
T6770 001:641.960   CPU_ReadMem(64 bytes @ 0x20000000)
T6770 001:642.806    -- Updating C cache (64 bytes @ 0x20000000)
T6770 001:642.818    -- Read from C cache (4 bytes @ 0x20000000)
T6770 001:642.826   Data:  08 04 01 20
T6770 001:642.834 - 0.906ms returns 4 (0x4)
T6770 001:642.931 JLINK_HasError()
T6770 001:642.941 JLINK_WriteReg(R13 (SP), 0x20010408)
T6770 001:642.949 - 0.008ms returns 0
T6770 001:642.957 JLINK_HasError()
T6770 001:642.963 JLINK_ReadReg(R0)
T6770 001:642.969 - 0.005ms returns 0x00000000
T6770 001:642.975 JLINK_ReadReg(R1)
T6770 001:642.980 - 0.004ms returns 0x00000000
T6770 001:642.986 JLINK_ReadReg(R2)
T6770 001:642.992 - 0.004ms returns 0x00000000
T6770 001:642.998 JLINK_ReadReg(R3)
T6770 001:643.003 - 0.004ms returns 0x00000000
T6770 001:643.009 JLINK_ReadReg(R4)
T6770 001:643.014 - 0.004ms returns 0x00000000
T6770 001:643.020 JLINK_ReadReg(R5)
T6770 001:643.025 - 0.005ms returns 0x00000000
T6770 001:643.032 JLINK_ReadReg(R6)
T6770 001:643.037 - 0.005ms returns 0x00000000
T6770 001:643.043 JLINK_ReadReg(R7)
T6770 001:643.048 - 0.004ms returns 0x00000000
T6770 001:643.054 JLINK_ReadReg(R8)
T6770 001:643.059 - 0.005ms returns 0x00000000
T6770 001:643.065 JLINK_ReadReg(R9)
T6770 001:643.070 - 0.004ms returns 0x00000000
T6770 001:643.083 JLINK_ReadReg(R10)
T6770 001:643.092 - 0.008ms returns 0x00000000
T6770 001:643.101 JLINK_ReadReg(R11)
T6770 001:643.106 - 0.005ms returns 0x00000000
T6770 001:643.112 JLINK_ReadReg(R12)
T6770 001:643.117 - 0.004ms returns 0x00000000
T6770 001:643.123 JLINK_ReadReg(R13 (SP))
T6770 001:643.128 - 0.005ms returns 0x20010408
T6770 001:643.135 JLINK_ReadReg(R14)
T6770 001:643.140 - 0.004ms returns 0xFFFFFFFF
T6770 001:643.146 JLINK_ReadReg(R15 (PC))
T6770 001:643.151 - 0.005ms returns 0x080062D8
T6770 001:643.157 JLINK_ReadReg(XPSR)
T6770 001:643.162 - 0.005ms returns 0x01000000
T6770 001:643.169 JLINK_ReadReg(MSP)
T6770 001:643.174 - 0.004ms returns 0x20010408
T6770 001:643.180 JLINK_ReadReg(PSP)
T6770 001:643.185 - 0.005ms returns 0x00000000
T6770 001:643.191 JLINK_ReadReg(CFBP)
T6770 001:643.196 - 0.004ms returns 0x00000000
T6770 001:643.202 JLINK_ReadReg(FPSCR)
T6770 001:643.208 - 0.005ms returns 0x00000000
T6770 001:643.214 JLINK_ReadReg(FPS0)
T6770 001:643.219 - 0.005ms returns 0x00000000
T6770 001:643.225 JLINK_ReadReg(FPS1)
T6770 001:643.230 - 0.004ms returns 0x00000000
T6770 001:643.236 JLINK_ReadReg(FPS2)
T6770 001:643.241 - 0.004ms returns 0x00000000
T6770 001:643.248 JLINK_ReadReg(FPS3)
T6770 001:643.253 - 0.004ms returns 0x00000000
T6770 001:643.259 JLINK_ReadReg(FPS4)
T6770 001:643.264 - 0.004ms returns 0x00000000
T6770 001:643.270 JLINK_ReadReg(FPS5)
T6770 001:643.275 - 0.004ms returns 0x00000000
T6770 001:643.281 JLINK_ReadReg(FPS6)
T6770 001:643.286 - 0.004ms returns 0x00000000
T6770 001:643.293 JLINK_ReadReg(FPS7)
T6770 001:643.298 - 0.004ms returns 0x00000000
T6770 001:643.304 JLINK_ReadReg(FPS8)
T6770 001:643.309 - 0.004ms returns 0x00000000
T6770 001:643.315 JLINK_ReadReg(FPS9)
T6770 001:643.320 - 0.004ms returns 0x00000000
T6770 001:643.326 JLINK_ReadReg(FPS10)
T6770 001:643.331 - 0.005ms returns 0x00000000
T6770 001:643.337 JLINK_ReadReg(FPS11)
T6770 001:643.342 - 0.004ms returns 0x00000000
T6770 001:643.349 JLINK_ReadReg(FPS12)
T6770 001:643.354 - 0.005ms returns 0x00000000
T6770 001:643.360 JLINK_ReadReg(FPS13)
T6770 001:643.365 - 0.004ms returns 0x00000000
T6770 001:643.371 JLINK_ReadReg(FPS14)
T6770 001:643.376 - 0.004ms returns 0x00000000
T6770 001:643.382 JLINK_ReadReg(FPS15)
T6770 001:643.387 - 0.004ms returns 0x00000000
T6770 001:643.394 JLINK_ReadReg(FPS16)
T6770 001:643.399 - 0.004ms returns 0x00000000
T6770 001:643.405 JLINK_ReadReg(FPS17)
T6770 001:643.410 - 0.004ms returns 0x00000000
T6770 001:643.416 JLINK_ReadReg(FPS18)
T6770 001:643.421 - 0.004ms returns 0x00000000
T6770 001:643.427 JLINK_ReadReg(FPS19)
T6770 001:643.432 - 0.004ms returns 0x00000000
T6770 001:643.438 JLINK_ReadReg(FPS20)
T6770 001:643.443 - 0.004ms returns 0x00000000
T6770 001:643.450 JLINK_ReadReg(FPS21)
T6770 001:643.455 - 0.004ms returns 0x00000000
T6770 001:643.461 JLINK_ReadReg(FPS22)
T6770 001:643.466 - 0.004ms returns 0x00000000
T6770 001:643.472 JLINK_ReadReg(FPS23)
T6770 001:643.477 - 0.004ms returns 0x00000000
T6770 001:643.483 JLINK_ReadReg(FPS24)
T6770 001:643.488 - 0.005ms returns 0x00000000
T6770 001:643.495 JLINK_ReadReg(FPS25)
T6770 001:643.500 - 0.004ms returns 0x00000000
T6770 001:643.506 JLINK_ReadReg(FPS26)
T6770 001:643.511 - 0.004ms returns 0x00000000
T6770 001:643.517 JLINK_ReadReg(FPS27)
T6770 001:643.522 - 0.004ms returns 0x00000000
T6770 001:643.528 JLINK_ReadReg(FPS28)
T6770 001:643.533 - 0.004ms returns 0x00000000
T6770 001:643.539 JLINK_ReadReg(FPS29)
T6770 001:643.544 - 0.004ms returns 0x00000000
T6770 001:643.551 JLINK_ReadReg(FPS30)
T6770 001:643.556 - 0.004ms returns 0x00000000
T6770 001:643.562 JLINK_ReadReg(FPS31)
T6770 001:643.567 - 0.004ms returns 0x00000000
T6770 001:643.575 JLINK_ReadMemEx(0x20000004, 0x4 Bytes, Flags = 0x02000000)
T6770 001:643.581    -- Read from C cache (4 bytes @ 0x20000004)
T6770 001:643.589   Data:  8D 03 00 20
T6770 001:643.596 - 0.021ms returns 4 (0x4)
T6770 001:643.602 JLINK_HasError()
T6770 001:643.609 JLINK_WriteReg(R15 (PC), 0x2000038C)
T6770 001:643.614 - 0.005ms returns 0
T6770 001:643.662 JLINK_HasError()
T6770 001:643.671 JLINK_ReadReg(R0)
T6770 001:643.677 - 0.005ms returns 0x00000000
T6770 001:643.683 JLINK_ReadReg(R1)
T6770 001:643.688 - 0.005ms returns 0x00000000
T6770 001:643.694 JLINK_ReadReg(R2)
T6770 001:643.699 - 0.004ms returns 0x00000000
T6770 001:643.705 JLINK_ReadReg(R3)
T6770 001:643.711 - 0.005ms returns 0x00000000
T6770 001:643.717 JLINK_ReadReg(R4)
T6770 001:643.722 - 0.004ms returns 0x00000000
T6770 001:643.728 JLINK_ReadReg(R5)
T6770 001:643.733 - 0.004ms returns 0x00000000
T6770 001:643.739 JLINK_ReadReg(R6)
T6770 001:643.744 - 0.004ms returns 0x00000000
T6770 001:643.750 JLINK_ReadReg(R7)
T6770 001:643.755 - 0.004ms returns 0x00000000
T6770 001:643.762 JLINK_ReadReg(R8)
T6770 001:643.767 - 0.005ms returns 0x00000000
T6770 001:643.773 JLINK_ReadReg(R9)
T6770 001:643.778 - 0.004ms returns 0x00000000
T6770 001:643.784 JLINK_ReadReg(R10)
T6770 001:643.789 - 0.004ms returns 0x00000000
T6770 001:643.795 JLINK_ReadReg(R11)
T6770 001:643.800 - 0.004ms returns 0x00000000
T6770 001:643.806 JLINK_ReadReg(R12)
T6770 001:643.812 - 0.004ms returns 0x00000000
T6770 001:643.818 JLINK_ReadReg(R13 (SP))
T6770 001:643.823 - 0.005ms returns 0x20010408
T6770 001:643.829 JLINK_ReadReg(R14)
T6770 001:643.834 - 0.005ms returns 0xFFFFFFFF
T6770 001:643.840 JLINK_ReadReg(R15 (PC))
T6770 001:643.845 - 0.004ms returns 0x2000038C
T6770 001:643.851 JLINK_ReadReg(XPSR)
T6770 001:643.857 - 0.005ms returns 0x01000000
T6770 001:643.865 JLINK_ReadReg(MSP)
T6770 001:643.870 - 0.005ms returns 0x20010408
T6770 001:643.876 JLINK_ReadReg(PSP)
T6770 001:643.881 - 0.005ms returns 0x00000000
T6770 001:643.888 JLINK_ReadReg(CFBP)
T6770 001:643.893 - 0.004ms returns 0x00000000
T6770 001:643.899 JLINK_ReadReg(FPSCR)
T6770 001:643.904 - 0.004ms returns 0x00000000
T6770 001:643.910 JLINK_ReadReg(FPS0)
T6770 001:643.915 - 0.005ms returns 0x00000000
T6770 001:643.921 JLINK_ReadReg(FPS1)
T6770 001:643.926 - 0.004ms returns 0x00000000
T6770 001:643.933 JLINK_ReadReg(FPS2)
T6770 001:643.938 - 0.005ms returns 0x00000000
T6770 001:643.944 JLINK_ReadReg(FPS3)
T6770 001:643.949 - 0.005ms returns 0x00000000
T6770 001:643.955 JLINK_ReadReg(FPS4)
T6770 001:643.960 - 0.004ms returns 0x00000000
T6770 001:643.966 JLINK_ReadReg(FPS5)
T6770 001:643.971 - 0.004ms returns 0x00000000
T6770 001:643.978 JLINK_ReadReg(FPS6)
T6770 001:643.983 - 0.004ms returns 0x00000000
T6770 001:643.989 JLINK_ReadReg(FPS7)
T6770 001:643.994 - 0.005ms returns 0x00000000
T6770 001:644.000 JLINK_ReadReg(FPS8)
T6770 001:644.005 - 0.004ms returns 0x00000000
T6770 001:644.011 JLINK_ReadReg(FPS9)
T6770 001:644.016 - 0.004ms returns 0x00000000
T6770 001:644.022 JLINK_ReadReg(FPS10)
T6770 001:644.027 - 0.004ms returns 0x00000000
T6770 001:644.034 JLINK_ReadReg(FPS11)
T6770 001:644.039 - 0.004ms returns 0x00000000
T6770 001:644.045 JLINK_ReadReg(FPS12)
T6770 001:644.050 - 0.005ms returns 0x00000000
T6770 001:644.056 JLINK_ReadReg(FPS13)
T6770 001:644.061 - 0.005ms returns 0x00000000
T6770 001:644.067 JLINK_ReadReg(FPS14)
T6770 001:644.072 - 0.004ms returns 0x00000000
T6770 001:644.079 JLINK_ReadReg(FPS15)
T6770 001:644.084 - 0.004ms returns 0x00000000
T6770 001:644.090 JLINK_ReadReg(FPS16)
T6770 001:644.095 - 0.004ms returns 0x00000000
T6770 001:644.101 JLINK_ReadReg(FPS17)
T6770 001:644.106 - 0.005ms returns 0x00000000
T6770 001:644.112 JLINK_ReadReg(FPS18)
T6770 001:644.117 - 0.004ms returns 0x00000000
T6770 001:644.123 JLINK_ReadReg(FPS19)
T6770 001:644.128 - 0.004ms returns 0x00000000
T6770 001:644.135 JLINK_ReadReg(FPS20)
T6770 001:644.140 - 0.005ms returns 0x00000000
T6770 001:644.146 JLINK_ReadReg(FPS21)
T6770 001:644.151 - 0.005ms returns 0x00000000
T6770 001:644.157 JLINK_ReadReg(FPS22)
T6770 001:644.162 - 0.004ms returns 0x00000000
T6770 001:644.168 JLINK_ReadReg(FPS23)
T6770 001:644.173 - 0.004ms returns 0x00000000
T6770 001:644.179 JLINK_ReadReg(FPS24)
T6770 001:644.185 - 0.004ms returns 0x00000000
T6770 001:644.191 JLINK_ReadReg(FPS25)
T6770 001:644.196 - 0.004ms returns 0x00000000
T6770 001:644.203 JLINK_ReadReg(FPS26)
T6770 001:644.209 - 0.005ms returns 0x00000000
T6770 001:644.215 JLINK_ReadReg(FPS27)
T6770 001:644.220 - 0.005ms returns 0x00000000
T6770 001:644.226 JLINK_ReadReg(FPS28)
T6770 001:644.231 - 0.004ms returns 0x00000000
T6770 001:644.237 JLINK_ReadReg(FPS29)
T6770 001:644.242 - 0.004ms returns 0x00000000
T6770 001:644.248 JLINK_ReadReg(FPS30)
T6770 001:644.253 - 0.004ms returns 0x00000000
T6770 001:644.259 JLINK_ReadReg(FPS31)
T6770 001:644.264 - 0.004ms returns 0x00000000
T6770 001:644.272 JLINK_WriteMemEx(0xE000ED08, 0x00000004 Bytes, Flags = 0x02000000)
T6770 001:644.277   Data:  00 00 00 20
T6770 001:644.289   CPU_WriteMem(4 bytes @ 0xE000ED08)
T6770 001:644.863 - 0.590ms returns 0x4
T6770 001:669.760 JLINK_ReadMemEx(0xE000ED28, 0x4 Bytes, Flags = 0x02000000)
T6770 001:669.787   CPU_ReadMem(4 bytes @ 0xE000ED28)
T6770 001:670.389   Data:  00 00 00 00
T6770 001:670.403 - 0.642ms returns 4 (0x4)
T6770 001:673.774 JLINK_HasError()
T6770 001:673.788 JLINK_ReadMemU32(0xE0001004, 0x1 Items)
T6770 001:673.798   Data:  00 00 00 00
T6770 001:673.806   Debug reg: DWT_CYCCNT
T6770 001:673.813 - 0.025ms returns 1 (0x1)
T6770 001:679.405 JLINK_ReadMemEx(0x2000028C, 0x3C Bytes, Flags = 0x02000000)
T6770 001:679.423   CPU_ReadMem(128 bytes @ 0x20000280)
T6770 001:680.765    -- Updating C cache (128 bytes @ 0x20000280)
T6770 001:680.777    -- Read from C cache (60 bytes @ 0x2000028C)
T6770 001:680.786   Data:  81 B0 00 90 00 98 02 68 40 68 41 00 03 20 00 FA ...
T6770 001:680.793 - 1.388ms returns 60 (0x3C)
T6770 001:680.802 JLINK_ReadMemEx(0x2000028C, 0x2 Bytes, Flags = 0x02000000)
T6770 001:680.810    -- Read from C cache (2 bytes @ 0x2000028C)
T6770 001:680.817   Data:  81 B0
T6770 001:680.825 - 0.023ms returns 2 (0x2)
T6770 001:680.833 JLINK_ReadMemEx(0x2000028E, 0x2 Bytes, Flags = 0x02000000)
T6770 001:680.839    -- Read from C cache (2 bytes @ 0x2000028E)
T6770 001:680.846   Data:  00 90
T6770 001:680.853 - 0.021ms returns 2 (0x2)
T6770 001:680.865 JLINK_ReadMemEx(0x2000028E, 0x2 Bytes, Flags = 0x02000000)
T6770 001:680.871    -- Read from C cache (2 bytes @ 0x2000028E)
T6770 001:680.878   Data:  00 90
T6770 001:680.886 - 0.021ms returns 2 (0x2)
T6770 001:680.892 JLINK_ReadMemEx(0x20000290, 0x3C Bytes, Flags = 0x02000000)
T6770 001:680.898    -- Read from C cache (60 bytes @ 0x20000290)
T6770 001:680.906   Data:  00 98 02 68 40 68 41 00 03 20 00 FA 01 F3 11 68 ...
T6770 001:680.913 - 0.020ms returns 60 (0x3C)
T6770 001:680.920 JLINK_ReadMemEx(0x20000290, 0x2 Bytes, Flags = 0x02000000)
T6770 001:680.926    -- Read from C cache (2 bytes @ 0x20000290)
T6770 001:680.933   Data:  00 98
T6770 001:680.940 - 0.020ms returns 2 (0x2)
T6770 001:680.947 JLINK_ReadMemEx(0x20000290, 0x3C Bytes, Flags = 0x02000000)
T6770 001:680.953    -- Read from C cache (60 bytes @ 0x20000290)
T6770 001:680.960   Data:  00 98 02 68 40 68 41 00 03 20 00 FA 01 F3 11 68 ...
T6770 001:680.968 - 0.020ms returns 60 (0x3C)
T6770 001:680.982 JLINK_ReadMemEx(0x20000290, 0x2 Bytes, Flags = 0x02000000)
T6770 001:680.989    -- Read from C cache (2 bytes @ 0x20000290)
T6770 001:680.996   Data:  00 98
T6770 001:681.003 - 0.021ms returns 2 (0x2)
T6770 001:681.010 JLINK_ReadMemEx(0x20000292, 0x2 Bytes, Flags = 0x02000000)
T6770 001:681.016    -- Read from C cache (2 bytes @ 0x20000292)
T6770 001:681.023   Data:  02 68
T6770 001:681.030 - 0.020ms returns 2 (0x2)
T6770 001:681.037 JLINK_ReadMemEx(0x20000292, 0x2 Bytes, Flags = 0x02000000)
T6770 001:681.043    -- Read from C cache (2 bytes @ 0x20000292)
T6770 001:681.050   Data:  02 68
T6770 001:681.057 - 0.020ms returns 2 (0x2)
T6770 001:681.064 JLINK_ReadMemEx(0x20000294, 0x3C Bytes, Flags = 0x02000000)
T6770 001:681.070    -- Read from C cache (60 bytes @ 0x20000294)
T6770 001:681.077   Data:  40 68 41 00 03 20 00 FA 01 F3 11 68 99 43 11 60 ...
T6770 001:681.084 - 0.020ms returns 60 (0x3C)
T6770 001:681.091 JLINK_ReadMemEx(0x20000294, 0x2 Bytes, Flags = 0x02000000)
T6770 001:681.097    -- Read from C cache (2 bytes @ 0x20000294)
T6770 001:681.110   Data:  40 68
T6770 001:681.117 - 0.026ms returns 2 (0x2)
T6770 001:681.124 JLINK_ReadMemEx(0x20000294, 0x3C Bytes, Flags = 0x02000000)
T6770 001:681.130    -- Read from C cache (60 bytes @ 0x20000294)
T6770 001:681.137   Data:  40 68 41 00 03 20 00 FA 01 F3 11 68 99 43 11 60 ...
T6770 001:681.144 - 0.020ms returns 60 (0x3C)
T6770 001:681.151 JLINK_ReadMemEx(0x20000294, 0x2 Bytes, Flags = 0x02000000)
T6770 001:681.157    -- Read from C cache (2 bytes @ 0x20000294)
T6770 001:681.164   Data:  40 68
T6770 001:681.171 - 0.020ms returns 2 (0x2)
T6770 001:681.178 JLINK_ReadMemEx(0x20000296, 0x2 Bytes, Flags = 0x02000000)
T6770 001:681.183    -- Read from C cache (2 bytes @ 0x20000296)
T6770 001:681.190   Data:  41 00
T6770 001:681.198 - 0.020ms returns 2 (0x2)
T6770 001:681.204 JLINK_ReadMemEx(0x20000296, 0x2 Bytes, Flags = 0x02000000)
T6770 001:681.210    -- Read from C cache (2 bytes @ 0x20000296)
T6770 001:681.217   Data:  41 00
T6770 001:681.224 - 0.019ms returns 2 (0x2)
T6770 001:681.231 JLINK_ReadMemEx(0x20000298, 0x3C Bytes, Flags = 0x02000000)
T6770 001:681.236    -- Read from C cache (60 bytes @ 0x20000298)
T6770 001:681.244   Data:  03 20 00 FA 01 F3 11 68 99 43 11 60 00 99 0A 68 ...
T6770 001:681.251 - 0.020ms returns 60 (0x3C)
T6770 001:681.258 JLINK_ReadMemEx(0x20000298, 0x2 Bytes, Flags = 0x02000000)
T6770 001:681.263    -- Read from C cache (2 bytes @ 0x20000298)
T6770 001:681.270   Data:  03 20
T6770 001:681.277 - 0.020ms returns 2 (0x2)
T6770 001:681.284 JLINK_ReadMemEx(0x20000298, 0x3C Bytes, Flags = 0x02000000)
T6770 001:681.290    -- Read from C cache (60 bytes @ 0x20000298)
T6770 001:681.297   Data:  03 20 00 FA 01 F3 11 68 99 43 11 60 00 99 0A 68 ...
T6770 001:681.305 - 0.020ms returns 60 (0x3C)
T6770 001:681.311 JLINK_ReadMemEx(0x20000298, 0x2 Bytes, Flags = 0x02000000)
T6770 001:681.317    -- Read from C cache (2 bytes @ 0x20000298)
T6770 001:681.324   Data:  03 20
T6770 001:681.331 - 0.019ms returns 2 (0x2)
T6770 001:681.337 JLINK_ReadMemEx(0x2000029A, 0x2 Bytes, Flags = 0x02000000)
T6770 001:681.343    -- Read from C cache (2 bytes @ 0x2000029A)
T6770 001:681.350   Data:  00 FA
T6770 001:681.357 - 0.020ms returns 2 (0x2)
T6770 001:681.364 JLINK_ReadMemEx(0x2000029A, 0x2 Bytes, Flags = 0x02000000)
T6770 001:681.370    -- Read from C cache (2 bytes @ 0x2000029A)
T6770 001:681.377   Data:  00 FA
T6770 001:681.384 - 0.020ms returns 2 (0x2)
T6770 001:681.391 JLINK_ReadMemEx(0x2000029C, 0x3C Bytes, Flags = 0x02000000)
T6770 001:681.396    -- Read from C cache (60 bytes @ 0x2000029C)
T6770 001:681.404   Data:  01 F3 11 68 99 43 11 60 00 99 0A 68 4B 68 01 21 ...
T6770 001:681.411 - 0.020ms returns 60 (0x3C)
T6770 001:681.418 JLINK_ReadMemEx(0x2000029C, 0x2 Bytes, Flags = 0x02000000)
T6770 001:681.423    -- Read from C cache (2 bytes @ 0x2000029C)
T6770 001:681.430   Data:  01 F3
T6770 001:681.437 - 0.020ms returns 2 (0x2)
T6770 001:681.450 JLINK_ReadMemEx(0x2000029E, 0x2 Bytes, Flags = 0x02000000)
T6770 001:681.456    -- Read from C cache (2 bytes @ 0x2000029E)
T6770 001:681.463   Data:  11 68
T6770 001:681.470 - 0.020ms returns 2 (0x2)
T6770 001:681.477 JLINK_ReadMemEx(0x200002A0, 0x3C Bytes, Flags = 0x02000000)
T6770 001:681.483    -- Read from C cache (60 bytes @ 0x200002A0)
T6770 001:681.490   Data:  99 43 11 60 00 99 0A 68 4B 68 01 21 01 FA 03 F3 ...
T6770 001:681.497 - 0.020ms returns 60 (0x3C)
T6770 001:681.503 JLINK_ReadMemEx(0x200002A0, 0x2 Bytes, Flags = 0x02000000)
T6770 001:681.509    -- Read from C cache (2 bytes @ 0x200002A0)
T6770 001:681.516   Data:  99 43
T6770 001:681.523 - 0.019ms returns 2 (0x2)
T6770 001:681.529 JLINK_ReadMemEx(0x200002A0, 0x3C Bytes, Flags = 0x02000000)
T6770 001:681.535    -- Read from C cache (60 bytes @ 0x200002A0)
T6770 001:681.542   Data:  99 43 11 60 00 99 0A 68 4B 68 01 21 01 FA 03 F3 ...
T6770 001:681.549 - 0.020ms returns 60 (0x3C)
T6770 001:681.556 JLINK_ReadMemEx(0x200002A0, 0x2 Bytes, Flags = 0x02000000)
T6770 001:681.561    -- Read from C cache (2 bytes @ 0x200002A0)
T6770 001:681.570   Data:  99 43
T6770 001:681.577 - 0.021ms returns 2 (0x2)
T6770 001:681.583 JLINK_ReadMemEx(0x200002A2, 0x2 Bytes, Flags = 0x02000000)
T6770 001:681.589    -- Read from C cache (2 bytes @ 0x200002A2)
T6770 001:681.596   Data:  11 60
T6770 001:681.603 - 0.019ms returns 2 (0x2)
T6770 001:681.610 JLINK_ReadMemEx(0x200002A2, 0x2 Bytes, Flags = 0x02000000)
T6770 001:681.615    -- Read from C cache (2 bytes @ 0x200002A2)
T6770 001:681.622   Data:  11 60
T6770 001:681.629 - 0.019ms returns 2 (0x2)
T6770 001:681.636 JLINK_ReadMemEx(0x200002A4, 0x3C Bytes, Flags = 0x02000000)
T6770 001:681.641    -- Read from C cache (60 bytes @ 0x200002A4)
T6770 001:681.648   Data:  00 99 0A 68 4B 68 01 21 01 FA 03 F3 51 68 99 43 ...
T6770 001:681.655 - 0.020ms returns 60 (0x3C)
T6770 001:681.662 JLINK_ReadMemEx(0x200002A4, 0x2 Bytes, Flags = 0x02000000)
T6770 001:681.667    -- Read from C cache (2 bytes @ 0x200002A4)
T6770 001:681.674   Data:  00 99
T6770 001:681.681 - 0.019ms returns 2 (0x2)
T6770 001:681.688 JLINK_ReadMemEx(0x200002A4, 0x3C Bytes, Flags = 0x02000000)
T6770 001:681.693    -- Read from C cache (60 bytes @ 0x200002A4)
T6770 001:681.701   Data:  00 99 0A 68 4B 68 01 21 01 FA 03 F3 51 68 99 43 ...
T6770 001:681.708 - 0.019ms returns 60 (0x3C)
T6770 001:681.714 JLINK_ReadMemEx(0x200002A4, 0x2 Bytes, Flags = 0x02000000)
T6770 001:681.720    -- Read from C cache (2 bytes @ 0x200002A4)
T6770 001:681.726   Data:  00 99
T6770 001:681.733 - 0.019ms returns 2 (0x2)
T6770 001:681.740 JLINK_ReadMemEx(0x200002A6, 0x2 Bytes, Flags = 0x02000000)
T6770 001:681.745    -- Read from C cache (2 bytes @ 0x200002A6)
T6770 001:681.752   Data:  0A 68
T6770 001:681.759 - 0.019ms returns 2 (0x2)
T6770 001:681.766 JLINK_ReadMemEx(0x200002A6, 0x2 Bytes, Flags = 0x02000000)
T6770 001:681.771    -- Read from C cache (2 bytes @ 0x200002A6)
T6770 001:681.778   Data:  0A 68
T6770 001:681.785 - 0.019ms returns 2 (0x2)
T6770 001:681.792 JLINK_ReadMemEx(0x200002A8, 0x3C Bytes, Flags = 0x02000000)
T6770 001:681.797    -- Read from C cache (60 bytes @ 0x200002A8)
T6770 001:681.805   Data:  4B 68 01 21 01 FA 03 F3 51 68 99 43 51 60 00 99 ...
T6770 001:681.812 - 0.020ms returns 60 (0x3C)
T6770 001:681.818 JLINK_ReadMemEx(0x200002A8, 0x2 Bytes, Flags = 0x02000000)
T6770 001:681.824    -- Read from C cache (2 bytes @ 0x200002A8)
T6770 001:681.831   Data:  4B 68
T6770 001:681.838 - 0.019ms returns 2 (0x2)
T6770 001:681.844 JLINK_ReadMemEx(0x200002A8, 0x3C Bytes, Flags = 0x02000000)
T6770 001:681.850    -- Read from C cache (60 bytes @ 0x200002A8)
T6770 001:681.857   Data:  4B 68 01 21 01 FA 03 F3 51 68 99 43 51 60 00 99 ...
T6770 001:681.866 - 0.022ms returns 60 (0x3C)
T6770 001:681.872 JLINK_ReadMemEx(0x200002A8, 0x2 Bytes, Flags = 0x02000000)
T6770 001:681.884    -- Read from C cache (2 bytes @ 0x200002A8)
T6770 001:681.897   Data:  4B 68
T6770 001:681.909 - 0.036ms returns 2 (0x2)
T6770 001:681.921 JLINK_ReadMemEx(0x200002AA, 0x2 Bytes, Flags = 0x02000000)
T6770 001:681.931    -- Read from C cache (2 bytes @ 0x200002AA)
T6770 001:681.938   Data:  01 21
T6770 001:681.945 - 0.025ms returns 2 (0x2)
T6770 001:681.952 JLINK_ReadMemEx(0x200002AA, 0x2 Bytes, Flags = 0x02000000)
T6770 001:681.958    -- Read from C cache (2 bytes @ 0x200002AA)
T6770 001:681.965   Data:  01 21
T6770 001:681.972 - 0.019ms returns 2 (0x2)
T6770 001:681.979 JLINK_ReadMemEx(0x200002AC, 0x3C Bytes, Flags = 0x02000000)
T6770 001:681.984    -- Read from C cache (60 bytes @ 0x200002AC)
T6770 001:681.992   Data:  01 FA 03 F3 51 68 99 43 51 60 00 99 0A 68 49 68 ...
T6770 001:681.999 - 0.020ms returns 60 (0x3C)
T6770 001:682.005 JLINK_ReadMemEx(0x200002AC, 0x2 Bytes, Flags = 0x02000000)
T6770 001:682.018    -- Read from C cache (2 bytes @ 0x200002AC)
T6770 001:682.025   Data:  01 FA
T6770 001:682.032 - 0.026ms returns 2 (0x2)
T6770 001:682.041 JLINK_ReadMemEx(0x200002AC, 0x3C Bytes, Flags = 0x02000000)
T6770 001:682.047    -- Read from C cache (60 bytes @ 0x200002AC)
T6770 001:682.055   Data:  01 FA 03 F3 51 68 99 43 51 60 00 99 0A 68 49 68 ...
T6770 001:682.064 - 0.022ms returns 60 (0x3C)
T6770 001:682.070 JLINK_ReadMemEx(0x200002AC, 0x2 Bytes, Flags = 0x02000000)
T6770 001:682.076    -- Read from C cache (2 bytes @ 0x200002AC)
T6770 001:682.083   Data:  01 FA
T6770 001:682.090 - 0.019ms returns 2 (0x2)
T6770 001:682.096 JLINK_ReadMemEx(0x200002AE, 0x2 Bytes, Flags = 0x02000000)
T6770 001:682.102    -- Read from C cache (2 bytes @ 0x200002AE)
T6770 001:682.109   Data:  03 F3
T6770 001:682.116 - 0.019ms returns 2 (0x2)
T6770 001:682.123 JLINK_ReadMemEx(0x200002B0, 0x3C Bytes, Flags = 0x02000000)
T6770 001:682.128    -- Read from C cache (60 bytes @ 0x200002B0)
T6770 001:682.135   Data:  51 68 99 43 51 60 00 99 0A 68 49 68 49 00 00 FA ...
T6770 001:682.142 - 0.019ms returns 60 (0x3C)
